T55E8 000:003.592   SEGGER J-Link V6.86 Log File
T55E8 000:003.774   DLL Compiled: Sep 24 2020 17:31:31
T55E8 000:003.780   Logging started @ 2021-06-24 22:10
T55E8 000:003.784 - 3.787ms
T55E8 000:003.793 JLINK_SetWarnOutHandler(...)
T55E8 000:003.800 - 0.009ms
T55E8 000:003.805 JLINK_OpenEx(...)
T55E8 000:005.321   Firmware: J-Link V10 compiled Oct  5 2020 14:56:16
T55E8 000:005.487   Decompressing FW timestamp took 137 us
T55E8 000:009.070   Hardware: V10.10
T55E8 000:009.127   S/N: 70100527
T55E8 000:009.135   OEM: MIDAS
T55E8 000:009.159   Feature(s): RDI, GDB
T55E8 000:011.047   TELNET listener socket opened on port 19021
T55E8 000:011.170   WEBSRV Starting webserver
T55E8 000:011.286   WEBSRV Webserver running on local port 19080
T55E8 000:011.300 - 7.498ms returns "O.K."
T55E8 000:011.318 JLINK_GetEmuCaps()
T55E8 000:011.326 - 0.012ms returns 0xB9FF7BBF
T55E8 000:011.341 JLINK_TIF_GetAvailable(...)
T55E8 000:011.585 - 0.250ms
T55E8 000:011.599 JLINK_SetErrorOutHandler(...)
T55E8 000:011.604 - 0.008ms
T55E8 000:011.620 JLINK_ExecCommand("ProjectFile = "C:\Users\hui\codes\ADuCM355\ADuCM355_hui\M355_Fermi_Inc\ARM\JLinkSettings.ini"", ...). 
T55E8 000:019.223 - 7.614ms returns 0x00
T55E8 000:021.655 JLINK_ExecCommand("Device = ADuCM355", ...). 
T55E8 000:023.162   Device "ADUCM355" selected.
T55E8 000:023.431 - 1.764ms returns 0x00
T55E8 000:023.447 JLINK_GetHardwareVersion()
T55E8 000:023.453 - 0.008ms returns 101000
T55E8 000:023.462 JLINK_GetDLLVersion()
T55E8 000:023.468 - 0.007ms returns 68600
T55E8 000:023.474 JLINK_GetOEMString(...)
T55E8 000:030.927 JLINK_GetDLLVersion()
T55E8 000:030.947 - 0.022ms returns 68600
T55E8 000:030.953 JLINK_GetCompileDateTime()
T55E8 000:030.959 - 0.008ms
T55E8 000:032.357 JLINK_GetFirmwareString(...)
T55E8 000:032.372 - 0.018ms
T55E8 000:035.423 JLINK_GetHardwareVersion()
T55E8 000:035.437 - 0.017ms returns 101000
T55E8 000:038.801 JLINK_GetSN()
T55E8 000:038.814 - 0.016ms returns 70100527
T55E8 000:039.664 JLINK_GetOEMString(...)
T55E8 000:042.180 JLINK_TIF_Select(JLINKARM_TIF_SWD)
T55E8 000:043.008 - 0.838ms returns 0x00
T55E8 000:043.024 JLINK_HasError()
T55E8 000:043.036 JLINK_SetSpeed(2000)
T55E8 000:043.201 - 0.169ms
T55E8 000:043.211 JLINK_GetId()
T55E8 000:045.873   Found SW-DP with ID 0x2BA01477
T55E8 000:051.813   DPIDR: 0x2BA01477
T55E8 000:054.486   Scanning AP map to find all available APs
T55E8 000:057.706   AP[1]: Stopped AP scan as end of AP map has been reached
T55E8 000:060.354   AP[0]: AHB-AP (IDR: 0x24770011)
T55E8 000:063.060   Iterating through AP map to find AHB-AP to use
T55E8 000:066.550   AP[0]: Core found
T55E8 000:071.821   AP[0]: AHB-AP ROM base: 0xE00FF000
T55E8 000:074.994   CPUID register: 0x412FC231. Implementer code: 0x41 (ARM)
T55E8 000:077.777   Found Cortex-M3 r2p1, Little endian.
T55E8 000:179.121   -- Max. mem block: 0x000045C0
T55E8 000:179.170   CPU_ReadMem(4 bytes @ 0xE000EDF0)
T55E8 000:180.021   CPU_WriteMem(4 bytes @ 0xE000EDF0)
T55E8 000:180.610   CPU_ReadMem(4 bytes @ 0xE0002000)
T55E8 000:184.159   FPUnit: 2 code (BP) slots and 0 literal slots
T55E8 000:184.174   CPU_ReadMem(4 bytes @ 0xE000EDFC)
T55E8 000:184.710   CPU_WriteMem(4 bytes @ 0xE000EDFC)
T55E8 000:185.226   CPU_ReadMem(4 bytes @ 0xE0001000)
T55E8 000:185.794   CPU_WriteMem(4 bytes @ 0xE0001000)
T55E8 000:186.284   CPU_ReadMem(4 bytes @ 0xE000ED88)
T55E8 000:186.828   CPU_WriteMem(4 bytes @ 0xE000ED88)
T55E8 000:187.366   CPU_ReadMem(4 bytes @ 0xE000ED88)
T55E8 000:187.885   CPU_WriteMem(4 bytes @ 0xE000ED88)
T55E8 000:190.870   CoreSight components:
T55E8 000:193.339   ROMTbl[0] @ E00FF000
T55E8 000:193.353   CPU_ReadMem(64 bytes @ 0xE00FF000)
T55E8 000:194.313   CPU_ReadMem(32 bytes @ 0xE000EFE0)
T55E8 000:198.658   ROMTbl[0][0]: E000E000, CID: B105E00D, PID: 000BB000 SCS
T55E8 000:198.679   CPU_ReadMem(32 bytes @ 0xE0001FE0)
T55E8 000:202.085   ROMTbl[0][1]: E0001000, CID: B105E00D, PID: 003BB002 DWT
T55E8 000:202.104   CPU_ReadMem(32 bytes @ 0xE0002FE0)
T55E8 000:205.473   ROMTbl[0][2]: E0002000, CID: B105E00D, PID: 002BB003 FPB
T55E8 000:205.958 - 162.753ms returns 0x2BA01477
T55E8 000:205.975 JLINK_GetDLLVersion()
T55E8 000:205.981 - 0.007ms returns 68600
T55E8 000:205.988 JLINK_CORE_GetFound()
T55E8 000:205.993 - 0.007ms returns 0x30000FF
T55E8 000:206.001 JLINK_GetDebugInfo(0x100 = JLINKARM_ROM_TABLE_ADDR_INDEX)
T55E8 000:206.007   Value=0xE00FF000
T55E8 000:206.014 - 0.015ms returns 0
T55E8 000:208.669 JLINK_GetDebugInfo(0x100 = JLINKARM_ROM_TABLE_ADDR_INDEX)
T55E8 000:208.680   Value=0xE00FF000
T55E8 000:208.687 - 0.021ms returns 0
T55E8 000:208.693 JLINK_GetDebugInfo(0x101 = JLINKARM_DEBUG_INFO_ETM_ADDR_INDEX)
T55E8 000:208.698   Value=0x00000000
T55E8 000:208.705 - 0.014ms returns 0
T55E8 000:208.715 JLINK_ReadMemEx(0xE0041FF0, 0x10 Bytes, Flags = 0x02000004)
T55E8 000:208.734   CPU_ReadMem(2 bytes @ 0x40002020)
T55E8 000:209.270   CPU_ReadMem(16 bytes @ 0xE0041FF0)
T55E8 000:209.865   Data:  00 00 00 00 00 00 00 00 00 00 00 00 00 00 00 00
T55E8 000:209.877 - 1.165ms returns 16 (0x10)
T55E8 000:209.885 JLINK_GetDebugInfo(0x102 = JLINKARM_DEBUG_INFO_MTB_ADDR_INDEX)
T55E8 000:209.890   Value=0x00000000
T55E8 000:209.897 - 0.038ms returns 0
T55E8 000:209.930 JLINK_GetDebugInfo(0x103 = JLINKARM_DEBUG_INFO_TPIU_ADDR_INDEX)
T55E8 000:209.962   Value=0x00000000
T55E8 000:209.969 - 0.041ms returns 0
T55E8 000:209.975 JLINK_ReadMemEx(0xE0040FF0, 0x10 Bytes, Flags = 0x02000004)
T55E8 000:209.986   CPU_ReadMem(16 bytes @ 0xE0040FF0)
T55E8 000:210.520   Data:  00 00 00 00 00 00 00 00 00 00 00 00 00 00 00 00
T55E8 000:210.532 - 0.560ms returns 16 (0x10)
T55E8 000:210.540 JLINK_GetDebugInfo(0x104 = JLINKARM_DEBUG_INFO_ITM_ADDR_INDEX)
T55E8 000:210.545   Value=0xE0000000
T55E8 000:210.552 - 0.014ms returns 0
T55E8 000:210.558 JLINK_GetDebugInfo(0x105 = JLINKARM_DEBUG_INFO_DWT_ADDR_INDEX)
T55E8 000:210.563   Value=0xE0001000
T55E8 000:210.569 - 0.013ms returns 0
T55E8 000:210.574 JLINK_GetDebugInfo(0x106 = JLINKARM_DEBUG_INFO_FPB_ADDR_INDEX)
T55E8 000:210.579   Value=0xE0002000
T55E8 000:210.586 - 0.013ms returns 0
T55E8 000:210.591 JLINK_GetDebugInfo(0x107 = JLINKARM_DEBUG_INFO_NVIC_ADDR_INDEX)
T55E8 000:210.596   Value=0xE000E000
T55E8 000:210.603 - 0.013ms returns 0
T55E8 000:210.608 JLINK_GetDebugInfo(0x10C = JLINKARM_DEBUG_INFO_DBG_ADDR_INDEX)
T55E8 000:210.613   Value=0xE000EDF0
T55E8 000:210.620 - 0.013ms returns 0
T55E8 000:210.625 JLINK_GetDebugInfo(0x01 = Unknown)
T55E8 000:210.630   Value=0x00000000
T55E8 000:210.637 - 0.013ms returns 0
T55E8 000:210.642 JLINK_ReadMemU32(0xE000ED00, 0x1 Items)
T55E8 000:210.652   CPU_ReadMem(4 bytes @ 0xE000ED00)
T55E8 000:211.116   Data:  31 C2 2F 41
T55E8 000:211.126   Debug reg: CPUID
T55E8 000:211.133 - 0.493ms returns 1 (0x1)
T55E8 000:211.140 JLINK_GetDebugInfo(0x10F = JLINKARM_DEBUG_INFO_HAS_CORTEX_M_SECURITY_EXT_INDEX)
T55E8 000:211.145   Value=0x00000000
T55E8 000:211.151 - 0.014ms returns 0
T55E8 000:211.157 JLINK_HasError()
T55E8 000:211.163 JLINK_SetResetType(JLINKARM_CM3_RESET_TYPE_NORMAL)
T55E8 000:211.168 - 0.007ms returns JLINKARM_CM3_RESET_TYPE_NORMAL
T55E8 000:211.174 JLINK_Reset()
T55E8 000:214.915   ResetTarget() start
T55E8 000:214.931    J-Link Script File: Executing ResetTarget()
T55E8 000:214.950   CPU is running
T55E8 000:214.959   CPU_WriteMem(4 bytes @ 0xE000EDFC)
T55E8 000:215.450   CPU is running
T55E8 000:215.460   CPU_WriteMem(4 bytes @ 0xE0001020)
T55E8 000:215.959   CPU is running
T55E8 000:215.969   CPU_WriteMem(4 bytes @ 0xE0001024)
T55E8 000:216.477   CPU is running
T55E8 000:216.486   CPU_WriteMem(4 bytes @ 0xE0001028)
T55E8 000:216.979   CPU is running
T55E8 000:216.988   CPU_WriteMem(4 bytes @ 0xE000ED0C)
T55E8 000:424.007   CPU_ReadMem(4 bytes @ 0xE000EDF0)
T55E8 000:425.075   CPU_WriteMem(4 bytes @ 0xE000EDFC)
T55E8 000:426.120   CPU_WriteMem(4 bytes @ 0xE0001028)
T55E8 000:427.155   CPU_ReadMem(64 bytes @ 0x00000000)
T55E8 000:428.542    -- Updating C cache (64 bytes @ 0x00000000)
T55E8 000:428.618    -- Read from C cache (4 bytes @ 0x00000000)
T55E8 000:433.717    -- Read from C cache (4 bytes @ 0x00000004)
T55E8 000:439.107   ResetTarget() end
T55E8 000:442.527   CPU_WriteMem(4 bytes @ 0xE0002000)
T55E8 000:442.994   CPU_ReadMem(4 bytes @ 0xE000EDFC)
T55E8 000:443.490   CPU_ReadMem(4 bytes @ 0xE0001000)
T55E8 000:443.990 - 232.824ms
T55E8 000:444.008 JLINK_Halt()
T55E8 000:444.014 - 0.008ms returns 0x00
T55E8 000:444.022 JLINK_ReadMemU32(0xE000EDF0, 0x1 Items)
T55E8 000:444.032   CPU_ReadMem(4 bytes @ 0xE000EDF0)
T55E8 000:444.449   Data:  03 00 03 00
T55E8 000:444.461   Debug reg: DHCSR
T55E8 000:444.468 - 0.448ms returns 1 (0x1)
T55E8 000:444.546 JLINK_WriteU32_64(0xE000EDF0, 0xA05F0003)
T55E8 000:444.561   Debug reg: DHCSR
T55E8 000:444.576   CPU_WriteMem(4 bytes @ 0xE000EDF0)
T55E8 000:445.037 - 0.498ms returns 0 (0x00000000)
T55E8 000:445.050 JLINK_WriteU32_64(0xE000EDFC, 0x01000000)
T55E8 000:445.055   Debug reg: DEMCR
T55E8 000:445.069   CPU_WriteMem(4 bytes @ 0xE000EDFC)
T55E8 000:445.515 - 0.472ms returns 0 (0x00000000)
T55E8 000:456.757 JLINK_GetHWStatus(...)
T55E8 000:457.054 - 0.305ms returns 0
T55E8 000:467.233 JLINK_GetNumBPUnits(Type = 0xFFFFFF00)
T55E8 000:467.252 - 0.021ms returns 0x02
T55E8 000:467.259 JLINK_GetNumBPUnits(Type = 0xF0)
T55E8 000:467.264 - 0.007ms returns 0x2000
T55E8 000:467.269 JLINK_GetNumWPUnits()
T55E8 000:467.274 - 0.007ms returns 1
T55E8 000:474.968 JLINK_GetSpeed()
T55E8 000:474.984 - 0.018ms returns 2000
T55E8 000:481.132 JLINK_ReadMemU32(0xE000E004, 0x1 Items)
T55E8 000:481.161   CPU_ReadMem(4 bytes @ 0xE000E004)
T55E8 000:481.752   Data:  01 00 00 00
T55E8 000:481.769 - 0.639ms returns 1 (0x1)
T55E8 000:481.777 JLINK_ReadMemU32(0xE000E004, 0x1 Items)
T55E8 000:481.788   CPU_ReadMem(4 bytes @ 0xE000E004)
T55E8 000:482.284   Data:  01 00 00 00
T55E8 000:482.297 - 0.522ms returns 1 (0x1)
T55E8 000:482.305 JLINK_WriteMemEx(0xE0001000, 0x0000001C Bytes, Flags = 0x02000004)
T55E8 000:482.310   Data:  01 00 00 00 00 00 00 00 00 00 00 00 00 00 00 00 ...
T55E8 000:482.502   CPU_WriteMem(28 bytes @ 0xE0001000)
T55E8 000:483.153 - 0.857ms returns 0x1C
T55E8 000:483.170 JLINK_Halt()
T55E8 000:483.176 - 0.007ms returns 0x00
T55E8 000:483.181 JLINK_IsHalted()
T55E8 000:483.187 - 0.007ms returns TRUE
T55E8 000:486.114 JLINK_WriteMem(0x20000000, 0x254 Bytes, ...)
T55E8 000:486.123   Data:  00 BE 0A E0 0D 78 2D 06 68 40 08 24 40 00 00 D3 ...
T55E8 000:486.321   CPU_WriteMem(596 bytes @ 0x20000000)
T55E8 000:490.577 - 4.469ms returns 0x254
T55E8 000:490.604 JLINK_HasError()
T55E8 000:490.611 JLINK_WriteReg(R0, 0x00000000)
T55E8 000:490.619 - 0.010ms returns 0
T55E8 000:490.625 JLINK_WriteReg(R1, 0x018CBA80)
T55E8 000:490.630 - 0.007ms returns 0
T55E8 000:490.636 JLINK_WriteReg(R2, 0x00000001)
T55E8 000:490.641 - 0.007ms returns 0
T55E8 000:490.646 JLINK_WriteReg(R3, 0x00000000)
T55E8 000:490.651 - 0.007ms returns 0
T55E8 000:490.657 JLINK_WriteReg(R4, 0x00000000)
T55E8 000:490.662 - 0.007ms returns 0
T55E8 000:490.668 JLINK_WriteReg(R5, 0x00000000)
T55E8 000:490.673 - 0.007ms returns 0
T55E8 000:490.678 JLINK_WriteReg(R6, 0x00000000)
T55E8 000:490.683 - 0.007ms returns 0
T55E8 000:490.689 JLINK_WriteReg(R7, 0x00000000)
T55E8 000:490.694 - 0.007ms returns 0
T55E8 000:490.699 JLINK_WriteReg(R8, 0x00000000)
T55E8 000:490.710 - 0.013ms returns 0
T55E8 000:490.716 JLINK_WriteReg(R9, 0x2000024C)
T55E8 000:490.721 - 0.007ms returns 0
T55E8 000:490.726 JLINK_WriteReg(R10, 0x00000000)
T55E8 000:490.731 - 0.007ms returns 0
T55E8 000:490.737 JLINK_WriteReg(R11, 0x00000000)
T55E8 000:490.742 - 0.007ms returns 0
T55E8 000:490.748 JLINK_WriteReg(R12, 0x00000000)
T55E8 000:490.753 - 0.007ms returns 0
T55E8 000:490.758 JLINK_WriteReg(R13 (SP), 0x20001000)
T55E8 000:490.764 - 0.008ms returns 0
T55E8 000:490.769 JLINK_WriteReg(R14, 0x20000001)
T55E8 000:490.775 - 0.007ms returns 0
T55E8 000:490.780 JLINK_WriteReg(R15 (PC), 0x20000038)
T55E8 000:490.787 - 0.009ms returns 0
T55E8 000:490.793 JLINK_WriteReg(XPSR, 0x01000000)
T55E8 000:490.798 - 0.007ms returns 0
T55E8 000:490.804 JLINK_WriteReg(MSP, 0x20001000)
T55E8 000:490.815 - 0.014ms returns 0
T55E8 000:490.822 JLINK_WriteReg(PSP, 0x20001000)
T55E8 000:490.827 - 0.007ms returns 0
T55E8 000:490.834 JLINK_WriteReg(CFBP, 0x00000000)
T55E8 000:490.841 - 0.010ms returns 0
T55E8 000:490.881 JLINK_SetBPEx(Addr = 0x20000000, Type = 0xFFFFFFF2)
T55E8 000:491.084   CPU_ReadMem(2 bytes @ 0x20000000)
T55E8 000:491.731 - 0.856ms returns 0x00000001
T55E8 000:491.742 JLINK_Go()
T55E8 000:491.750   CPU_WriteMem(2 bytes @ 0x20000000)
T55E8 000:492.241   CPU_ReadMem(4 bytes @ 0xE0001000)
T55E8 000:492.750   CPU_WriteMem(4 bytes @ 0xE0002008)
T55E8 000:492.761   CPU_WriteMem(4 bytes @ 0xE000200C)
T55E8 000:493.501   CPU_WriteMem(4 bytes @ 0xE0001004)
T55E8 000:497.387 - 5.654ms
T55E8 000:497.406 JLINK_IsHalted()
T55E8 000:500.933   CPU_ReadMem(2 bytes @ 0x20000000)
T55E8 000:501.485 - 4.087ms returns TRUE
T55E8 000:501.501 JLINK_ReadReg(R15 (PC))
T55E8 000:501.510 - 0.010ms returns 0x20000000
T55E8 000:501.517 JLINK_ClrBPEx(BPHandle = 0x00000001)
T55E8 000:501.523 - 0.008ms returns 0x00
T55E8 000:501.531 JLINK_ReadReg(R0)
T55E8 000:501.536 - 0.008ms returns 0x00000000
T55E8 000:502.529 JLINK_HasError()
T55E8 000:502.559 JLINK_WriteReg(R0, 0x00000000)
T55E8 000:502.567 - 0.010ms returns 0
T55E8 000:502.574 JLINK_WriteReg(R1, 0x018CBA80)
T55E8 000:502.579 - 0.008ms returns 0
T55E8 000:502.585 JLINK_WriteReg(R2, 0x00000001)
T55E8 000:502.590 - 0.008ms returns 0
T55E8 000:502.596 JLINK_WriteReg(R3, 0x00000000)
T55E8 000:502.628 - 0.034ms returns 0
T55E8 000:502.633 JLINK_WriteReg(R4, 0x00000000)
T55E8 000:502.659 - 0.027ms returns 0
T55E8 000:502.665 JLINK_WriteReg(R5, 0x00000000)
T55E8 000:502.670 - 0.007ms returns 0
T55E8 000:502.693 JLINK_WriteReg(R6, 0x00000000)
T55E8 000:502.698 - 0.007ms returns 0
T55E8 000:502.703 JLINK_WriteReg(R7, 0x00000000)
T55E8 000:502.728 - 0.027ms returns 0
T55E8 000:502.734 JLINK_WriteReg(R8, 0x00000000)
T55E8 000:502.740 - 0.007ms returns 0
T55E8 000:502.745 JLINK_WriteReg(R9, 0x2000024C)
T55E8 000:502.751 - 0.007ms returns 0
T55E8 000:502.756 JLINK_WriteReg(R10, 0x00000000)
T55E8 000:502.762 - 0.007ms returns 0
T55E8 000:502.768 JLINK_WriteReg(R11, 0x00000000)
T55E8 000:502.789 - 0.044ms returns 0
T55E8 000:502.815 JLINK_WriteReg(R12, 0x00000000)
T55E8 000:502.837 - 0.024ms returns 0
T55E8 000:502.843 JLINK_WriteReg(R13 (SP), 0x20001000)
T55E8 000:502.848 - 0.007ms returns 0
T55E8 000:502.854 JLINK_WriteReg(R14, 0x20000001)
T55E8 000:502.859 - 0.007ms returns 0
T55E8 000:502.864 JLINK_WriteReg(R15 (PC), 0x200000CE)
T55E8 000:502.869 - 0.007ms returns 0
T55E8 000:502.875 JLINK_WriteReg(XPSR, 0x01000000)
T55E8 000:502.880 - 0.007ms returns 0
T55E8 000:502.885 JLINK_WriteReg(MSP, 0x20001000)
T55E8 000:502.890 - 0.007ms returns 0
T55E8 000:502.917 JLINK_WriteReg(PSP, 0x20001000)
T55E8 000:502.922 - 0.007ms returns 0
T55E8 000:502.928 JLINK_WriteReg(CFBP, 0x00000000)
T55E8 000:502.933 - 0.007ms returns 0
T55E8 000:502.939 JLINK_SetBPEx(Addr = 0x20000000, Type = 0xFFFFFFF2)
T55E8 000:502.946 - 0.008ms returns 0x00000002
T55E8 000:502.952 JLINK_Go()
T55E8 000:502.981   CPU_ReadMem(4 bytes @ 0xE0001000)
T55E8 000:506.807 - 3.862ms
T55E8 000:506.820 JLINK_IsHalted()
T55E8 000:507.340 - 0.528ms returns FALSE
T55E8 000:507.353 JLINK_HasError()
T55E8 000:522.869 JLINK_IsHalted()
T55E8 000:523.383 - 0.522ms returns FALSE
T55E8 000:523.397 JLINK_HasError()
T55E8 000:524.849 JLINK_IsHalted()
T55E8 000:525.386 - 0.544ms returns FALSE
T55E8 000:525.399 JLINK_HasError()
T55E8 000:526.831 JLINK_IsHalted()
T55E8 000:527.376 - 0.553ms returns FALSE
T55E8 000:527.393 JLINK_HasError()
T55E8 000:528.847 JLINK_IsHalted()
T55E8 000:529.341 - 0.502ms returns FALSE
T55E8 000:529.355 JLINK_HasError()
T55E8 000:530.859 JLINK_IsHalted()
T55E8 000:531.349 - 0.495ms returns FALSE
T55E8 000:531.359 JLINK_HasError()
T55E8 000:532.817 JLINK_IsHalted()
T55E8 000:533.281 - 0.469ms returns FALSE
T55E8 000:533.291 JLINK_HasError()
T55E8 000:535.321 JLINK_IsHalted()
T55E8 000:538.940   CPU_ReadMem(2 bytes @ 0x20000000)
T55E8 000:539.483 - 4.169ms returns TRUE
T55E8 000:539.496 JLINK_ReadReg(R15 (PC))
T55E8 000:539.505 - 0.011ms returns 0x20000000
T55E8 000:539.511 JLINK_ClrBPEx(BPHandle = 0x00000002)
T55E8 000:539.517 - 0.008ms returns 0x00
T55E8 000:539.523 JLINK_ReadReg(R0)
T55E8 000:539.528 - 0.008ms returns 0x00000000
T55E8 000:591.572 JLINK_HasError()
T55E8 000:591.599 JLINK_WriteReg(R0, 0x00000001)
T55E8 000:591.609 - 0.013ms returns 0
T55E8 000:591.616 JLINK_WriteReg(R1, 0x018CBA80)
T55E8 000:591.622 - 0.008ms returns 0
T55E8 000:591.628 JLINK_WriteReg(R2, 0x00000001)
T55E8 000:591.633 - 0.007ms returns 0
T55E8 000:591.639 JLINK_WriteReg(R3, 0x00000000)
T55E8 000:591.644 - 0.007ms returns 0
T55E8 000:591.650 JLINK_WriteReg(R4, 0x00000000)
T55E8 000:591.655 - 0.007ms returns 0
T55E8 000:591.661 JLINK_WriteReg(R5, 0x00000000)
T55E8 000:591.666 - 0.007ms returns 0
T55E8 000:591.672 JLINK_WriteReg(R6, 0x00000000)
T55E8 000:591.677 - 0.007ms returns 0
T55E8 000:591.683 JLINK_WriteReg(R7, 0x00000000)
T55E8 000:591.688 - 0.007ms returns 0
T55E8 000:591.694 JLINK_WriteReg(R8, 0x00000000)
T55E8 000:591.699 - 0.007ms returns 0
T55E8 000:591.705 JLINK_WriteReg(R9, 0x2000024C)
T55E8 000:591.710 - 0.007ms returns 0
T55E8 000:591.716 JLINK_WriteReg(R10, 0x00000000)
T55E8 000:591.722 - 0.007ms returns 0
T55E8 000:591.727 JLINK_WriteReg(R11, 0x00000000)
T55E8 000:591.733 - 0.007ms returns 0
T55E8 000:591.738 JLINK_WriteReg(R12, 0x00000000)
T55E8 000:591.744 - 0.007ms returns 0
T55E8 000:591.749 JLINK_WriteReg(R13 (SP), 0x20001000)
T55E8 000:591.755 - 0.008ms returns 0
T55E8 000:591.761 JLINK_WriteReg(R14, 0x20000001)
T55E8 000:591.767 - 0.008ms returns 0
T55E8 000:591.773 JLINK_WriteReg(R15 (PC), 0x200000BA)
T55E8 000:591.778 - 0.008ms returns 0
T55E8 000:591.784 JLINK_WriteReg(XPSR, 0x01000000)
T55E8 000:591.789 - 0.008ms returns 0
T55E8 000:591.795 JLINK_WriteReg(MSP, 0x20001000)
T55E8 000:591.801 - 0.007ms returns 0
T55E8 000:591.806 JLINK_WriteReg(PSP, 0x20001000)
T55E8 000:591.812 - 0.007ms returns 0
T55E8 000:591.817 JLINK_WriteReg(CFBP, 0x00000000)
T55E8 000:591.823 - 0.007ms returns 0
T55E8 000:591.829 JLINK_SetBPEx(Addr = 0x20000000, Type = 0xFFFFFFF2)
T55E8 000:591.835 - 0.009ms returns 0x00000003
T55E8 000:591.841 JLINK_Go()
T55E8 000:591.855   CPU_ReadMem(4 bytes @ 0xE0001000)
T55E8 000:596.087 - 4.267ms
T55E8 000:596.118 JLINK_IsHalted()
T55E8 000:599.754   CPU_ReadMem(2 bytes @ 0x20000000)
T55E8 000:600.249 - 4.140ms returns TRUE
T55E8 000:600.267 JLINK_ReadReg(R15 (PC))
T55E8 000:600.278 - 0.014ms returns 0x20000000
T55E8 000:600.285 JLINK_ClrBPEx(BPHandle = 0x00000003)
T55E8 000:600.292 - 0.011ms returns 0x00
T55E8 000:600.301 JLINK_ReadReg(R0)
T55E8 000:600.310 - 0.012ms returns 0x00000000
T55E8 000:606.141 JLINK_WriteMem(0x20000000, 0x254 Bytes, ...)
T55E8 000:606.151   Data:  00 BE 0A E0 0D 78 2D 06 68 40 08 24 40 00 00 D3 ...
T55E8 000:606.167   CPU_WriteMem(596 bytes @ 0x20000000)
T55E8 000:610.227 - 4.094ms returns 0x254
T55E8 000:610.257 JLINK_HasError()
T55E8 000:610.265 JLINK_WriteReg(R0, 0x00000000)
T55E8 000:610.273 - 0.010ms returns 0
T55E8 000:610.279 JLINK_WriteReg(R1, 0x018CBA80)
T55E8 000:610.284 - 0.008ms returns 0
T55E8 000:610.290 JLINK_WriteReg(R2, 0x00000002)
T55E8 000:610.296 - 0.008ms returns 0
T55E8 000:610.301 JLINK_WriteReg(R3, 0x00000000)
T55E8 000:610.307 - 0.007ms returns 0
T55E8 000:610.313 JLINK_WriteReg(R4, 0x00000000)
T55E8 000:610.318 - 0.007ms returns 0
T55E8 000:610.324 JLINK_WriteReg(R5, 0x00000000)
T55E8 000:610.329 - 0.007ms returns 0
T55E8 000:610.335 JLINK_WriteReg(R6, 0x00000000)
T55E8 000:610.340 - 0.007ms returns 0
T55E8 000:610.346 JLINK_WriteReg(R7, 0x00000000)
T55E8 000:610.351 - 0.007ms returns 0
T55E8 000:610.357 JLINK_WriteReg(R8, 0x00000000)
T55E8 000:610.362 - 0.007ms returns 0
T55E8 000:610.368 JLINK_WriteReg(R9, 0x2000024C)
T55E8 000:610.373 - 0.007ms returns 0
T55E8 000:610.379 JLINK_WriteReg(R10, 0x00000000)
T55E8 000:610.385 - 0.008ms returns 0
T55E8 000:610.394 JLINK_WriteReg(R11, 0x00000000)
T55E8 000:610.401 - 0.010ms returns 0
T55E8 000:610.407 JLINK_WriteReg(R12, 0x00000000)
T55E8 000:610.412 - 0.007ms returns 0
T55E8 000:610.418 JLINK_WriteReg(R13 (SP), 0x20001000)
T55E8 000:610.425 - 0.008ms returns 0
T55E8 000:610.430 JLINK_WriteReg(R14, 0x20000001)
T55E8 000:610.436 - 0.007ms returns 0
T55E8 000:610.442 JLINK_WriteReg(R15 (PC), 0x20000038)
T55E8 000:610.447 - 0.008ms returns 0
T55E8 000:610.453 JLINK_WriteReg(XPSR, 0x01000000)
T55E8 000:610.458 - 0.008ms returns 0
T55E8 000:610.464 JLINK_WriteReg(MSP, 0x20001000)
T55E8 000:610.469 - 0.007ms returns 0
T55E8 000:610.475 JLINK_WriteReg(PSP, 0x20001000)
T55E8 000:610.481 - 0.007ms returns 0
T55E8 000:610.486 JLINK_WriteReg(CFBP, 0x00000000)
T55E8 000:610.492 - 0.007ms returns 0
T55E8 000:610.498 JLINK_SetBPEx(Addr = 0x20000000, Type = 0xFFFFFFF2)
T55E8 000:610.506   CPU_ReadMem(2 bytes @ 0x20000000)
T55E8 000:610.907 - 0.415ms returns 0x00000004
T55E8 000:610.917 JLINK_Go()
T55E8 000:610.926   CPU_WriteMem(2 bytes @ 0x20000000)
T55E8 000:611.323   CPU_ReadMem(4 bytes @ 0xE0001000)
T55E8 000:614.812 - 3.903ms
T55E8 000:614.826 JLINK_IsHalted()
T55E8 000:618.116   CPU_ReadMem(2 bytes @ 0x20000000)
T55E8 000:618.478 - 3.659ms returns TRUE
T55E8 000:618.491 JLINK_ReadReg(R15 (PC))
T55E8 000:618.499 - 0.011ms returns 0x20000000
T55E8 000:618.506 JLINK_ClrBPEx(BPHandle = 0x00000004)
T55E8 000:618.511 - 0.008ms returns 0x00
T55E8 000:618.517 JLINK_ReadReg(R0)
T55E8 000:618.523 - 0.007ms returns 0x00000000
T55E8 000:618.750 JLINK_WriteMem(0x20000254, 0x1AC Bytes, ...)
T55E8 000:618.759   Data:  C8 31 00 20 A1 01 00 00 B3 01 00 00 B5 01 00 00 ...
T55E8 000:618.773   CPU_WriteMem(428 bytes @ 0x20000254)
T55E8 000:621.729 - 2.987ms returns 0x1AC
T55E8 000:621.742 JLINK_WriteMem(0x20000400, 0x400 Bytes, ...)
T55E8 000:621.749   Data:  80 47 08 48 00 47 FE E7 FE E7 FE E7 FE E7 FE E7 ...
T55E8 000:621.762   CPU_WriteMem(1024 bytes @ 0x20000400)
T55E8 000:628.509 - 6.774ms returns 0x400
T55E8 000:628.526 JLINK_WriteMem(0x20000800, 0x254 Bytes, ...)
T55E8 000:628.532   Data:  10 F0 FF 00 88 F8 00 00 02 D1 0B 99 88 45 09 D9 ...
T55E8 000:628.545   CPU_WriteMem(596 bytes @ 0x20000800)
T55E8 000:632.788 - 4.271ms returns 0x254
T55E8 000:632.807 JLINK_HasError()
T55E8 000:632.814 JLINK_WriteReg(R0, 0x00000000)
T55E8 000:632.823 - 0.010ms returns 0
T55E8 000:632.829 JLINK_WriteReg(R1, 0x00000800)
T55E8 000:632.834 - 0.008ms returns 0
T55E8 000:632.840 JLINK_WriteReg(R2, 0x20000254)
T55E8 000:632.846 - 0.008ms returns 0
T55E8 000:632.853 JLINK_WriteReg(R3, 0x00000000)
T55E8 000:632.859 - 0.008ms returns 0
T55E8 000:632.866 JLINK_WriteReg(R4, 0x00000000)
T55E8 000:632.872 - 0.008ms returns 0
T55E8 000:632.879 JLINK_WriteReg(R5, 0x00000000)
T55E8 000:632.884 - 0.008ms returns 0
T55E8 000:632.892 JLINK_WriteReg(R6, 0x00000000)
T55E8 000:632.897 - 0.007ms returns 0
T55E8 000:632.905 JLINK_WriteReg(R7, 0x00000000)
T55E8 000:632.910 - 0.008ms returns 0
T55E8 000:632.917 JLINK_WriteReg(R8, 0x00000000)
T55E8 000:632.923 - 0.008ms returns 0
T55E8 000:632.930 JLINK_WriteReg(R9, 0x2000024C)
T55E8 000:632.936 - 0.007ms returns 0
T55E8 000:632.943 JLINK_WriteReg(R10, 0x00000000)
T55E8 000:632.948 - 0.008ms returns 0
T55E8 000:632.954 JLINK_WriteReg(R11, 0x00000000)
T55E8 000:632.960 - 0.007ms returns 0
T55E8 000:633.030 JLINK_WriteReg(R12, 0x00000000)
T55E8 000:633.047 - 0.019ms returns 0
T55E8 000:633.053 JLINK_WriteReg(R13 (SP), 0x20001000)
T55E8 000:633.060 - 0.008ms returns 0
T55E8 000:633.066 JLINK_WriteReg(R14, 0x20000001)
T55E8 000:633.071 - 0.007ms returns 0
T55E8 000:633.077 JLINK_WriteReg(R15 (PC), 0x2000014C)
T55E8 000:633.082 - 0.008ms returns 0
T55E8 000:633.088 JLINK_WriteReg(XPSR, 0x01000000)
T55E8 000:633.094 - 0.007ms returns 0
T55E8 000:633.099 JLINK_WriteReg(MSP, 0x20001000)
T55E8 000:633.105 - 0.007ms returns 0
T55E8 000:633.110 JLINK_WriteReg(PSP, 0x20001000)
T55E8 000:633.116 - 0.007ms returns 0
T55E8 000:633.122 JLINK_WriteReg(CFBP, 0x00000000)
T55E8 000:633.130 - 0.013ms returns 0
T55E8 000:633.139 JLINK_SetBPEx(Addr = 0x20000000, Type = 0xFFFFFFF2)
T55E8 000:633.146 - 0.009ms returns 0x00000005
T55E8 000:633.151 JLINK_Go()
T55E8 000:633.162   CPU_ReadMem(4 bytes @ 0xE0001000)
T55E8 000:637.046 - 3.901ms
T55E8 000:637.059 JLINK_IsHalted()
T55E8 000:637.524 - 0.473ms returns FALSE
T55E8 000:637.537 JLINK_HasError()
T55E8 000:641.117 JLINK_IsHalted()
T55E8 000:641.657 - 0.548ms returns FALSE
T55E8 000:641.671 JLINK_HasError()
T55E8 000:643.115 JLINK_IsHalted()
T55E8 000:643.603 - 0.495ms returns FALSE
T55E8 000:643.617 JLINK_HasError()
T55E8 000:645.130 JLINK_IsHalted()
T55E8 000:645.654 - 0.531ms returns FALSE
T55E8 000:645.667 JLINK_HasError()
T55E8 000:647.105 JLINK_IsHalted()
T55E8 000:647.574 - 0.476ms returns FALSE
T55E8 000:647.587 JLINK_HasError()
T55E8 000:649.252 JLINK_IsHalted()
T55E8 000:649.763 - 0.518ms returns FALSE
T55E8 000:649.776 JLINK_HasError()
T55E8 000:651.442 JLINK_IsHalted()
T55E8 000:651.992 - 0.557ms returns FALSE
T55E8 000:652.005 JLINK_HasError()
T55E8 000:653.423 JLINK_IsHalted()
T55E8 000:653.952 - 0.536ms returns FALSE
T55E8 000:653.965 JLINK_HasError()
T55E8 000:655.444 JLINK_IsHalted()
T55E8 000:655.984 - 0.546ms returns FALSE
T55E8 000:655.997 JLINK_HasError()
T55E8 000:657.469 JLINK_IsHalted()
T55E8 000:658.009 - 0.548ms returns FALSE
T55E8 000:658.025 JLINK_HasError()
T55E8 000:659.467 JLINK_IsHalted()
T55E8 000:660.009 - 0.549ms returns FALSE
T55E8 000:660.023 JLINK_HasError()
T55E8 000:661.444 JLINK_IsHalted()
T55E8 000:661.982 - 0.545ms returns FALSE
T55E8 000:661.995 JLINK_HasError()
T55E8 000:663.455 JLINK_IsHalted()
T55E8 000:667.125   CPU_ReadMem(2 bytes @ 0x20000000)
T55E8 000:667.681 - 4.233ms returns TRUE
T55E8 000:667.694 JLINK_ReadReg(R15 (PC))
T55E8 000:667.702 - 0.010ms returns 0x20000000
T55E8 000:667.709 JLINK_ClrBPEx(BPHandle = 0x00000005)
T55E8 000:667.715 - 0.008ms returns 0x00
T55E8 000:667.721 JLINK_ReadReg(R0)
T55E8 000:667.726 - 0.008ms returns 0x00000000
T55E8 000:668.090 JLINK_WriteMem(0x20000254, 0x1AC Bytes, ...)
T55E8 000:668.099   Data:  2D E9 FE 4F 80 46 81 EA 03 00 C0 0F 0C 46 00 90 ...
T55E8 000:668.112   CPU_WriteMem(428 bytes @ 0x20000254)
T55E8 000:671.264 - 3.182ms returns 0x1AC
T55E8 000:671.277 JLINK_WriteMem(0x20000400, 0x400 Bytes, ...)
T55E8 000:671.283   Data:  A4 FB 07 68 02 95 8D 0A 05 FB 07 85 4F EA 93 2C ...
T55E8 000:671.296   CPU_WriteMem(1024 bytes @ 0x20000400)
T55E8 000:678.128 - 6.872ms returns 0x400
T55E8 000:678.159 JLINK_WriteMem(0x20000800, 0x254 Bytes, ...)
T55E8 000:678.166   Data:  42 68 42 B1 01 68 11 F8 01 3B 23 B1 52 1E C0 E9 ...
T55E8 000:678.188   CPU_WriteMem(596 bytes @ 0x20000800)
T55E8 000:682.653 - 4.513ms returns 0x254
T55E8 000:682.686 JLINK_HasError()
T55E8 000:682.696 JLINK_WriteReg(R0, 0x00000800)
T55E8 000:682.707 - 0.014ms returns 0
T55E8 000:682.714 JLINK_WriteReg(R1, 0x00000800)
T55E8 000:682.720 - 0.009ms returns 0
T55E8 000:682.726 JLINK_WriteReg(R2, 0x20000254)
T55E8 000:682.732 - 0.008ms returns 0
T55E8 000:682.740 JLINK_WriteReg(R3, 0x00000000)
T55E8 000:682.747 - 0.009ms returns 0
T55E8 000:682.755 JLINK_WriteReg(R4, 0x00000000)
T55E8 000:682.761 - 0.008ms returns 0
T55E8 000:682.769 JLINK_WriteReg(R5, 0x00000000)
T55E8 000:682.775 - 0.008ms returns 0
T55E8 000:682.859 JLINK_WriteReg(R6, 0x00000000)
T55E8 000:682.876 - 0.019ms returns 0
T55E8 000:682.883 JLINK_WriteReg(R7, 0x00000000)
T55E8 000:682.889 - 0.008ms returns 0
T55E8 000:682.896 JLINK_WriteReg(R8, 0x00000000)
T55E8 000:682.901 - 0.008ms returns 0
T55E8 000:682.908 JLINK_WriteReg(R9, 0x2000024C)
T55E8 000:682.914 - 0.008ms returns 0
T55E8 000:682.920 JLINK_WriteReg(R10, 0x00000000)
T55E8 000:682.926 - 0.008ms returns 0
T55E8 000:682.932 JLINK_WriteReg(R11, 0x00000000)
T55E8 000:682.938 - 0.008ms returns 0
T55E8 000:682.944 JLINK_WriteReg(R12, 0x00000000)
T55E8 000:682.950 - 0.008ms returns 0
T55E8 000:682.956 JLINK_WriteReg(R13 (SP), 0x20001000)
T55E8 000:682.963 - 0.009ms returns 0
T55E8 000:682.973 JLINK_WriteReg(R14, 0x20000001)
T55E8 000:682.982 - 0.011ms returns 0
T55E8 000:682.988 JLINK_WriteReg(R15 (PC), 0x2000014C)
T55E8 000:682.994 - 0.008ms returns 0
T55E8 000:683.001 JLINK_WriteReg(XPSR, 0x01000000)
T55E8 000:683.007 - 0.008ms returns 0
T55E8 000:683.013 JLINK_WriteReg(MSP, 0x20001000)
T55E8 000:683.019 - 0.008ms returns 0
T55E8 000:683.025 JLINK_WriteReg(PSP, 0x20001000)
T55E8 000:683.031 - 0.008ms returns 0
T55E8 000:683.037 JLINK_WriteReg(CFBP, 0x00000000)
T55E8 000:683.043 - 0.008ms returns 0
T55E8 000:683.050 JLINK_SetBPEx(Addr = 0x20000000, Type = 0xFFFFFFF2)
T55E8 000:683.058 - 0.010ms returns 0x00000006
T55E8 000:683.064 JLINK_Go()
T55E8 000:683.078   CPU_ReadMem(4 bytes @ 0xE0001000)
T55E8 000:687.487 - 4.443ms
T55E8 000:687.516 JLINK_IsHalted()
T55E8 000:688.169 - 0.674ms returns FALSE
T55E8 000:688.200 JLINK_HasError()
T55E8 000:689.637 JLINK_IsHalted()
T55E8 000:690.157 - 0.527ms returns FALSE
T55E8 000:690.170 JLINK_HasError()
T55E8 000:691.613 JLINK_IsHalted()
T55E8 000:692.161 - 0.555ms returns FALSE
T55E8 000:692.174 JLINK_HasError()
T55E8 000:693.613 JLINK_IsHalted()
T55E8 000:694.156 - 0.552ms returns FALSE
T55E8 000:694.170 JLINK_HasError()
T55E8 000:696.569 JLINK_IsHalted()
T55E8 000:697.078 - 0.516ms returns FALSE
T55E8 000:697.091 JLINK_HasError()
T55E8 000:698.615 JLINK_IsHalted()
T55E8 000:699.150 - 0.543ms returns FALSE
T55E8 000:699.163 JLINK_HasError()
T55E8 000:700.646 JLINK_IsHalted()
T55E8 000:701.191 - 0.553ms returns FALSE
T55E8 000:701.205 JLINK_HasError()
T55E8 000:702.619 JLINK_IsHalted()
T55E8 000:703.136 - 0.525ms returns FALSE
T55E8 000:703.150 JLINK_HasError()
T55E8 000:705.036 JLINK_IsHalted()
T55E8 000:705.576 - 0.547ms returns FALSE
T55E8 000:705.589 JLINK_HasError()
T55E8 000:707.035 JLINK_IsHalted()
T55E8 000:707.568 - 0.540ms returns FALSE
T55E8 000:707.581 JLINK_HasError()
T55E8 000:709.009 JLINK_IsHalted()
T55E8 000:709.513 - 0.511ms returns FALSE
T55E8 000:709.526 JLINK_HasError()
T55E8 000:710.980 JLINK_IsHalted()
T55E8 000:711.480 - 0.508ms returns FALSE
T55E8 000:711.493 JLINK_HasError()
T55E8 000:712.952 JLINK_IsHalted()
T55E8 000:713.405 - 0.461ms returns FALSE
T55E8 000:713.418 JLINK_HasError()
T55E8 000:715.978 JLINK_IsHalted()
T55E8 000:719.471   CPU_ReadMem(2 bytes @ 0x20000000)
T55E8 000:719.950 - 3.979ms returns TRUE
T55E8 000:719.963 JLINK_ReadReg(R15 (PC))
T55E8 000:719.972 - 0.011ms returns 0x20000000
T55E8 000:719.978 JLINK_ClrBPEx(BPHandle = 0x00000006)
T55E8 000:719.984 - 0.008ms returns 0x00
T55E8 000:719.990 JLINK_ReadReg(R0)
T55E8 000:719.995 - 0.008ms returns 0x00000000
T55E8 000:720.361 JLINK_WriteMem(0x20000254, 0x1AC Bytes, ...)
T55E8 000:720.371   Data:  4F F0 00 0B D1 07 02 D1 00 18 6D 41 52 1E 00 27 ...
T55E8 000:720.384   CPU_WriteMem(428 bytes @ 0x20000254)
T55E8 000:723.479 - 3.126ms returns 0x1AC
T55E8 000:723.492 JLINK_WriteMem(0x20000400, 0x400 Bytes, ...)
T55E8 000:723.499   Data:  01 20 8D F8 10 00 00 20 05 90 01 20 06 90 03 20 ...
T55E8 000:723.511   CPU_WriteMem(1024 bytes @ 0x20000400)
T55E8 000:730.336 - 6.862ms returns 0x400
T55E8 000:730.363 JLINK_WriteMem(0x20000800, 0x254 Bytes, ...)
T55E8 000:730.369   Data:  01 05 4C F6 14 31 40 F6 0C 20 02 F0 5B FA 29 46 ...
T55E8 000:730.387   CPU_WriteMem(596 bytes @ 0x20000800)
T55E8 000:734.876 - 4.533ms returns 0x254
T55E8 000:734.911 JLINK_HasError()
T55E8 000:734.920 JLINK_WriteReg(R0, 0x00001000)
T55E8 000:734.930 - 0.013ms returns 0
T55E8 000:734.937 JLINK_WriteReg(R1, 0x00000800)
T55E8 000:734.943 - 0.008ms returns 0
T55E8 000:735.029 JLINK_WriteReg(R2, 0x20000254)
T55E8 000:735.045 - 0.018ms returns 0
T55E8 000:735.052 JLINK_WriteReg(R3, 0x00000000)
T55E8 000:735.057 - 0.008ms returns 0
T55E8 000:735.063 JLINK_WriteReg(R4, 0x00000000)
T55E8 000:735.069 - 0.008ms returns 0
T55E8 000:735.075 JLINK_WriteReg(R5, 0x00000000)
T55E8 000:735.080 - 0.007ms returns 0
T55E8 000:735.086 JLINK_WriteReg(R6, 0x00000000)
T55E8 000:735.092 - 0.008ms returns 0
T55E8 000:735.098 JLINK_WriteReg(R7, 0x00000000)
T55E8 000:735.160 - 0.065ms returns 0
T55E8 000:735.166 JLINK_WriteReg(R8, 0x00000000)
T55E8 000:735.172 - 0.008ms returns 0
T55E8 000:735.178 JLINK_WriteReg(R9, 0x2000024C)
T55E8 000:735.183 - 0.008ms returns 0
T55E8 000:735.190 JLINK_WriteReg(R10, 0x00000000)
T55E8 000:735.195 - 0.008ms returns 0
T55E8 000:735.201 JLINK_WriteReg(R11, 0x00000000)
T55E8 000:735.206 - 0.008ms returns 0
T55E8 000:735.213 JLINK_WriteReg(R12, 0x00000000)
T55E8 000:735.218 - 0.008ms returns 0
T55E8 000:735.224 JLINK_WriteReg(R13 (SP), 0x20001000)
T55E8 000:735.233 - 0.012ms returns 0
T55E8 000:735.240 JLINK_WriteReg(R14, 0x20000001)
T55E8 000:735.246 - 0.008ms returns 0
T55E8 000:735.252 JLINK_WriteReg(R15 (PC), 0x2000014C)
T55E8 000:735.257 - 0.008ms returns 0
T55E8 000:735.263 JLINK_WriteReg(XPSR, 0x01000000)
T55E8 000:735.269 - 0.008ms returns 0
T55E8 000:735.275 JLINK_WriteReg(MSP, 0x20001000)
T55E8 000:735.280 - 0.008ms returns 0
T55E8 000:735.286 JLINK_WriteReg(PSP, 0x20001000)
T55E8 000:735.292 - 0.008ms returns 0
T55E8 000:735.298 JLINK_WriteReg(CFBP, 0x00000000)
T55E8 000:735.303 - 0.008ms returns 0
T55E8 000:735.309 JLINK_SetBPEx(Addr = 0x20000000, Type = 0xFFFFFFF2)
T55E8 000:735.317 - 0.009ms returns 0x00000007
T55E8 000:735.323 JLINK_Go()
T55E8 000:735.336   CPU_ReadMem(4 bytes @ 0xE0001000)
T55E8 000:739.326 - 4.014ms
T55E8 000:739.343 JLINK_IsHalted()
T55E8 000:739.934 - 0.598ms returns FALSE
T55E8 000:739.947 JLINK_HasError()
T55E8 000:741.283 JLINK_IsHalted()
T55E8 000:741.790 - 0.514ms returns FALSE
T55E8 000:741.803 JLINK_HasError()
T55E8 000:743.281 JLINK_IsHalted()
T55E8 000:743.783 - 0.509ms returns FALSE
T55E8 000:743.796 JLINK_HasError()
T55E8 000:745.289 JLINK_IsHalted()
T55E8 000:745.778 - 0.496ms returns FALSE
T55E8 000:745.791 JLINK_HasError()
T55E8 000:747.587 JLINK_IsHalted()
T55E8 000:748.129 - 0.549ms returns FALSE
T55E8 000:748.142 JLINK_HasError()
T55E8 000:749.588 JLINK_IsHalted()
T55E8 000:750.154 - 0.574ms returns FALSE
T55E8 000:750.167 JLINK_HasError()
T55E8 000:751.587 JLINK_IsHalted()
T55E8 000:752.150 - 0.570ms returns FALSE
T55E8 000:752.163 JLINK_HasError()
T55E8 000:753.590 JLINK_IsHalted()
T55E8 000:754.112 - 0.529ms returns FALSE
T55E8 000:754.125 JLINK_HasError()
T55E8 000:755.548 JLINK_IsHalted()
T55E8 000:756.074 - 0.533ms returns FALSE
T55E8 000:756.087 JLINK_HasError()
T55E8 000:757.546 JLINK_IsHalted()
T55E8 000:758.029 - 0.490ms returns FALSE
T55E8 000:758.041 JLINK_HasError()
T55E8 000:759.595 JLINK_IsHalted()
T55E8 000:760.110 - 0.522ms returns FALSE
T55E8 000:760.125 JLINK_HasError()
T55E8 000:761.593 JLINK_IsHalted()
T55E8 000:762.147 - 0.560ms returns FALSE
T55E8 000:762.159 JLINK_HasError()
T55E8 000:763.598 JLINK_IsHalted()
T55E8 000:764.106 - 0.515ms returns FALSE
T55E8 000:764.118 JLINK_HasError()
T55E8 000:765.898 JLINK_IsHalted()
T55E8 000:769.493   CPU_ReadMem(2 bytes @ 0x20000000)
T55E8 000:769.980 - 4.092ms returns TRUE
T55E8 000:769.995 JLINK_ReadReg(R15 (PC))
T55E8 000:770.003 - 0.010ms returns 0x20000000
T55E8 000:770.026 JLINK_ClrBPEx(BPHandle = 0x00000007)
T55E8 000:770.032 - 0.008ms returns 0x00
T55E8 000:770.038 JLINK_ReadReg(R0)
T55E8 000:770.043 - 0.007ms returns 0x00000000
T55E8 000:770.419 JLINK_WriteMem(0x20000254, 0x1AC Bytes, ...)
T55E8 000:770.428   Data:  83 46 51 46 FE F7 82 FF 80 46 20 68 FF F7 80 F9 ...
T55E8 000:770.441   CPU_WriteMem(428 bytes @ 0x20000254)
T55E8 000:773.480 - 3.068ms returns 0x1AC
T55E8 000:773.493 JLINK_WriteMem(0x20000400, 0x400 Bytes, ...)
T55E8 000:773.498   Data:  02 F0 60 F8 01 21 42 F2 1C 10 02 F0 5B F8 10 BD ...
T55E8 000:773.510   CPU_WriteMem(1024 bytes @ 0x20000400)
T55E8 000:780.280 - 6.806ms returns 0x400
T55E8 000:780.307 JLINK_WriteMem(0x20000800, 0x254 Bytes, ...)
T55E8 000:780.314   Data:  6C 69 63 6F 6E 20 69 73 20 25 73 0A 00 00 00 00 ...
T55E8 000:780.331   CPU_WriteMem(596 bytes @ 0x20000800)
T55E8 000:784.743 - 4.455ms returns 0x254
T55E8 000:784.772 JLINK_HasError()
T55E8 000:784.780 JLINK_WriteReg(R0, 0x00001800)
T55E8 000:784.795 - 0.019ms returns 0
T55E8 000:784.803 JLINK_WriteReg(R1, 0x00000800)
T55E8 000:784.809 - 0.007ms returns 0
T55E8 000:784.814 JLINK_WriteReg(R2, 0x20000254)
T55E8 000:784.820 - 0.007ms returns 0
T55E8 000:784.834 JLINK_WriteReg(R3, 0x00000000)
T55E8 000:784.839 - 0.007ms returns 0
T55E8 000:784.845 JLINK_WriteReg(R4, 0x00000000)
T55E8 000:784.850 - 0.007ms returns 0
T55E8 000:784.855 JLINK_WriteReg(R5, 0x00000000)
T55E8 000:784.860 - 0.007ms returns 0
T55E8 000:784.866 JLINK_WriteReg(R6, 0x00000000)
T55E8 000:784.871 - 0.007ms returns 0
T55E8 000:784.880 JLINK_WriteReg(R7, 0x00000000)
T55E8 000:784.886 - 0.008ms returns 0
T55E8 000:784.893 JLINK_WriteReg(R8, 0x00000000)
T55E8 000:784.899 - 0.007ms returns 0
T55E8 000:784.906 JLINK_WriteReg(R9, 0x2000024C)
T55E8 000:784.911 - 0.007ms returns 0
T55E8 000:784.993 JLINK_WriteReg(R10, 0x00000000)
T55E8 000:785.007 - 0.016ms returns 0
T55E8 000:785.013 JLINK_WriteReg(R11, 0x00000000)
T55E8 000:785.019 - 0.008ms returns 0
T55E8 000:785.025 JLINK_WriteReg(R12, 0x00000000)
T55E8 000:785.030 - 0.007ms returns 0
T55E8 000:785.035 JLINK_WriteReg(R13 (SP), 0x20001000)
T55E8 000:785.041 - 0.008ms returns 0
T55E8 000:785.047 JLINK_WriteReg(R14, 0x20000001)
T55E8 000:785.052 - 0.007ms returns 0
T55E8 000:785.057 JLINK_WriteReg(R15 (PC), 0x2000014C)
T55E8 000:785.063 - 0.007ms returns 0
T55E8 000:785.068 JLINK_WriteReg(XPSR, 0x01000000)
T55E8 000:785.073 - 0.007ms returns 0
T55E8 000:785.079 JLINK_WriteReg(MSP, 0x20001000)
T55E8 000:785.084 - 0.007ms returns 0
T55E8 000:785.090 JLINK_WriteReg(PSP, 0x20001000)
T55E8 000:785.095 - 0.007ms returns 0
T55E8 000:785.100 JLINK_WriteReg(CFBP, 0x00000000)
T55E8 000:785.105 - 0.007ms returns 0
T55E8 000:785.111 JLINK_SetBPEx(Addr = 0x20000000, Type = 0xFFFFFFF2)
T55E8 000:785.118 - 0.009ms returns 0x00000008
T55E8 000:785.124 JLINK_Go()
T55E8 000:785.136   CPU_ReadMem(4 bytes @ 0xE0001000)
T55E8 000:789.553 - 4.449ms
T55E8 000:789.582 JLINK_IsHalted()
T55E8 000:790.138 - 0.564ms returns FALSE
T55E8 000:790.152 JLINK_HasError()
T55E8 000:791.908 JLINK_IsHalted()
T55E8 000:792.445 - 0.544ms returns FALSE
T55E8 000:792.458 JLINK_HasError()
T55E8 000:793.910 JLINK_IsHalted()
T55E8 000:794.466 - 0.563ms returns FALSE
T55E8 000:794.479 JLINK_HasError()
T55E8 000:795.902 JLINK_IsHalted()
T55E8 000:796.437 - 0.543ms returns FALSE
T55E8 000:796.451 JLINK_HasError()
T55E8 000:799.892 JLINK_IsHalted()
T55E8 000:800.448 - 0.564ms returns FALSE
T55E8 000:800.461 JLINK_HasError()
T55E8 000:801.939 JLINK_IsHalted()
T55E8 000:802.444 - 0.512ms returns FALSE
T55E8 000:802.457 JLINK_HasError()
T55E8 000:803.921 JLINK_IsHalted()
T55E8 000:804.449 - 0.534ms returns FALSE
T55E8 000:804.461 JLINK_HasError()
T55E8 000:806.248 JLINK_IsHalted()
T55E8 000:806.771 - 0.530ms returns FALSE
T55E8 000:806.784 JLINK_HasError()
T55E8 000:808.253 JLINK_IsHalted()
T55E8 000:808.792 - 0.546ms returns FALSE
T55E8 000:808.805 JLINK_HasError()
T55E8 000:810.141 JLINK_IsHalted()
T55E8 000:810.646 - 0.512ms returns FALSE
T55E8 000:810.662 JLINK_HasError()
T55E8 000:812.198 JLINK_IsHalted()
T55E8 000:812.698 - 0.508ms returns FALSE
T55E8 000:812.712 JLINK_HasError()
T55E8 000:814.187 JLINK_IsHalted()
T55E8 000:814.636 - 0.456ms returns FALSE
T55E8 000:814.648 JLINK_HasError()
T55E8 000:816.187 JLINK_IsHalted()
T55E8 000:819.610   CPU_ReadMem(2 bytes @ 0x20000000)
T55E8 000:820.080 - 3.899ms returns TRUE
T55E8 000:820.092 JLINK_ReadReg(R15 (PC))
T55E8 000:820.103 - 0.013ms returns 0x20000000
T55E8 000:820.109 JLINK_ClrBPEx(BPHandle = 0x00000008)
T55E8 000:820.115 - 0.008ms returns 0x00
T55E8 000:820.120 JLINK_ReadReg(R0)
T55E8 000:820.126 - 0.007ms returns 0x00000000
T55E8 000:821.213 JLINK_WriteMem(0x20000254, 0x1AC Bytes, ...)
T55E8 000:821.225   Data:  E8 00 01 F0 35 FD 42 F2 E0 00 61 69 01 F0 30 FD ...
T55E8 000:821.239   CPU_WriteMem(428 bytes @ 0x20000254)
T55E8 000:824.405 - 3.196ms returns 0x1AC
T55E8 000:824.415 JLINK_WriteMem(0x20000400, 0x400 Bytes, ...)
T55E8 000:824.423   Data:  FE F7 96 FD 3E 90 CD 49 3E 98 FE F7 DB FA CC 49 ...
T55E8 000:824.435   CPU_WriteMem(1024 bytes @ 0x20000400)
T55E8 000:831.592 - 7.184ms returns 0x400
T55E8 000:831.605 JLINK_WriteMem(0x20000800, 0x254 Bytes, ...)
T55E8 000:831.610   Data:  32 20 FF F7 CB F9 14 A8 02 F0 26 FB 13 99 40 1A ...
T55E8 000:831.622   CPU_WriteMem(596 bytes @ 0x20000800)
T55E8 000:835.777 - 4.179ms returns 0x254
T55E8 000:835.792 JLINK_HasError()
T55E8 000:835.799 JLINK_WriteReg(R0, 0x00002000)
T55E8 000:835.807 - 0.010ms returns 0
T55E8 000:835.813 JLINK_WriteReg(R1, 0x00000800)
T55E8 000:835.818 - 0.007ms returns 0
T55E8 000:835.824 JLINK_WriteReg(R2, 0x20000254)
T55E8 000:835.829 - 0.007ms returns 0
T55E8 000:835.837 JLINK_WriteReg(R3, 0x00000000)
T55E8 000:835.844 - 0.009ms returns 0
T55E8 000:835.851 JLINK_WriteReg(R4, 0x00000000)
T55E8 000:835.856 - 0.007ms returns 0
T55E8 000:835.927 JLINK_WriteReg(R5, 0x00000000)
T55E8 000:835.941 - 0.016ms returns 0
T55E8 000:835.947 JLINK_WriteReg(R6, 0x00000000)
T55E8 000:835.953 - 0.007ms returns 0
T55E8 000:835.958 JLINK_WriteReg(R7, 0x00000000)
T55E8 000:835.963 - 0.007ms returns 0
T55E8 000:835.969 JLINK_WriteReg(R8, 0x00000000)
T55E8 000:835.974 - 0.007ms returns 0
T55E8 000:835.979 JLINK_WriteReg(R9, 0x2000024C)
T55E8 000:835.984 - 0.007ms returns 0
T55E8 000:835.990 JLINK_WriteReg(R10, 0x00000000)
T55E8 000:835.995 - 0.007ms returns 0
T55E8 000:836.001 JLINK_WriteReg(R11, 0x00000000)
T55E8 000:836.006 - 0.007ms returns 0
T55E8 000:836.011 JLINK_WriteReg(R12, 0x00000000)
T55E8 000:836.016 - 0.007ms returns 0
T55E8 000:836.022 JLINK_WriteReg(R13 (SP), 0x20001000)
T55E8 000:836.027 - 0.007ms returns 0
T55E8 000:836.033 JLINK_WriteReg(R14, 0x20000001)
T55E8 000:836.038 - 0.007ms returns 0
T55E8 000:836.043 JLINK_WriteReg(R15 (PC), 0x2000014C)
T55E8 000:836.048 - 0.007ms returns 0
T55E8 000:836.054 JLINK_WriteReg(XPSR, 0x01000000)
T55E8 000:836.059 - 0.007ms returns 0
T55E8 000:836.064 JLINK_WriteReg(MSP, 0x20001000)
T55E8 000:836.069 - 0.007ms returns 0
T55E8 000:836.075 JLINK_WriteReg(PSP, 0x20001000)
T55E8 000:836.080 - 0.007ms returns 0
T55E8 000:836.085 JLINK_WriteReg(CFBP, 0x00000000)
T55E8 000:836.091 - 0.007ms returns 0
T55E8 000:836.096 JLINK_SetBPEx(Addr = 0x20000000, Type = 0xFFFFFFF2)
T55E8 000:836.103 - 0.008ms returns 0x00000009
T55E8 000:836.108 JLINK_Go()
T55E8 000:836.118   CPU_ReadMem(4 bytes @ 0xE0001000)
T55E8 000:839.997 - 3.896ms
T55E8 000:840.010 JLINK_IsHalted()
T55E8 000:840.523 - 0.520ms returns FALSE
T55E8 000:840.535 JLINK_HasError()
T55E8 000:842.370 JLINK_IsHalted()
T55E8 000:842.890 - 0.527ms returns FALSE
T55E8 000:842.903 JLINK_HasError()
T55E8 000:844.372 JLINK_IsHalted()
T55E8 000:844.896 - 0.530ms returns FALSE
T55E8 000:844.908 JLINK_HasError()
T55E8 000:846.592 JLINK_IsHalted()
T55E8 000:847.179 - 0.594ms returns FALSE
T55E8 000:847.192 JLINK_HasError()
T55E8 000:850.589 JLINK_IsHalted()
T55E8 000:851.048 - 0.466ms returns FALSE
T55E8 000:851.061 JLINK_HasError()
T55E8 000:852.595 JLINK_IsHalted()
T55E8 000:853.044 - 0.456ms returns FALSE
T55E8 000:853.056 JLINK_HasError()
T55E8 000:854.637 JLINK_IsHalted()
T55E8 000:855.156 - 0.526ms returns FALSE
T55E8 000:855.169 JLINK_HasError()
T55E8 000:856.636 JLINK_IsHalted()
T55E8 000:857.083 - 0.454ms returns FALSE
T55E8 000:857.096 JLINK_HasError()
T55E8 000:858.635 JLINK_IsHalted()
T55E8 000:859.082 - 0.454ms returns FALSE
T55E8 000:859.094 JLINK_HasError()
T55E8 000:860.669 JLINK_IsHalted()
T55E8 000:861.141 - 0.479ms returns FALSE
T55E8 000:861.153 JLINK_HasError()
T55E8 000:862.242 JLINK_IsHalted()
T55E8 000:862.733 - 0.499ms returns FALSE
T55E8 000:862.746 JLINK_HasError()
T55E8 000:864.276 JLINK_IsHalted()
T55E8 000:864.730 - 0.461ms returns FALSE
T55E8 000:864.743 JLINK_HasError()
T55E8 000:866.188 JLINK_IsHalted()
T55E8 000:869.674   CPU_ReadMem(2 bytes @ 0x20000000)
T55E8 000:870.117 - 3.937ms returns TRUE
T55E8 000:870.130 JLINK_ReadReg(R15 (PC))
T55E8 000:870.138 - 0.010ms returns 0x20000000
T55E8 000:870.147 JLINK_ClrBPEx(BPHandle = 0x00000009)
T55E8 000:870.155 - 0.010ms returns 0x00
T55E8 000:870.161 JLINK_ReadReg(R0)
T55E8 000:870.167 - 0.007ms returns 0x00000000
T55E8 000:870.498 JLINK_WriteMem(0x20000254, 0x1AC Bytes, ...)
T55E8 000:870.507   Data:  FD F7 84 FF 14 90 13 99 80 98 01 60 14 99 80 98 ...
T55E8 000:870.519   CPU_WriteMem(428 bytes @ 0x20000254)
T55E8 000:873.561 - 3.070ms returns 0x1AC
T55E8 000:873.574 JLINK_WriteMem(0x20000400, 0x400 Bytes, ...)
T55E8 000:873.580   Data:  01 F0 21 FE 01 22 11 46 D0 03 01 F0 45 FE 04 20 ...
T55E8 000:873.591   CPU_WriteMem(1024 bytes @ 0x20000400)
T55E8 000:880.649 - 7.094ms returns 0x400
T55E8 000:880.677 JLINK_WriteMem(0x20000800, 0x254 Bytes, ...)
T55E8 000:880.683   Data:  00 00 00 00 76 65 72 73 69 6F 6E 00 76 53 63 61 ...
T55E8 000:880.701   CPU_WriteMem(596 bytes @ 0x20000800)
T55E8 000:884.987 - 4.330ms returns 0x254
T55E8 000:885.017 JLINK_HasError()
T55E8 000:885.025 JLINK_WriteReg(R0, 0x00002800)
T55E8 000:885.036 - 0.013ms returns 0
T55E8 000:885.043 JLINK_WriteReg(R1, 0x00000800)
T55E8 000:885.048 - 0.008ms returns 0
T55E8 000:885.054 JLINK_WriteReg(R2, 0x20000254)
T55E8 000:885.060 - 0.008ms returns 0
T55E8 000:885.066 JLINK_WriteReg(R3, 0x00000000)
T55E8 000:885.071 - 0.008ms returns 0
T55E8 000:885.077 JLINK_WriteReg(R4, 0x00000000)
T55E8 000:885.083 - 0.007ms returns 0
T55E8 000:885.089 JLINK_WriteReg(R5, 0x00000000)
T55E8 000:885.094 - 0.008ms returns 0
T55E8 000:885.100 JLINK_WriteReg(R6, 0x00000000)
T55E8 000:885.105 - 0.008ms returns 0
T55E8 000:885.111 JLINK_WriteReg(R7, 0x00000000)
T55E8 000:885.117 - 0.008ms returns 0
T55E8 000:885.123 JLINK_WriteReg(R8, 0x00000000)
T55E8 000:885.128 - 0.008ms returns 0
T55E8 000:885.134 JLINK_WriteReg(R9, 0x2000024C)
T55E8 000:885.140 - 0.007ms returns 0
T55E8 000:885.145 JLINK_WriteReg(R10, 0x00000000)
T55E8 000:885.151 - 0.008ms returns 0
T55E8 000:885.157 JLINK_WriteReg(R11, 0x00000000)
T55E8 000:885.162 - 0.008ms returns 0
T55E8 000:885.168 JLINK_WriteReg(R12, 0x00000000)
T55E8 000:885.174 - 0.007ms returns 0
T55E8 000:885.180 JLINK_WriteReg(R13 (SP), 0x20001000)
T55E8 000:885.186 - 0.008ms returns 0
T55E8 000:885.192 JLINK_WriteReg(R14, 0x20000001)
T55E8 000:885.197 - 0.008ms returns 0
T55E8 000:885.203 JLINK_WriteReg(R15 (PC), 0x2000014C)
T55E8 000:885.209 - 0.008ms returns 0
T55E8 000:885.215 JLINK_WriteReg(XPSR, 0x01000000)
T55E8 000:885.221 - 0.008ms returns 0
T55E8 000:885.227 JLINK_WriteReg(MSP, 0x20001000)
T55E8 000:885.232 - 0.008ms returns 0
T55E8 000:885.238 JLINK_WriteReg(PSP, 0x20001000)
T55E8 000:885.244 - 0.008ms returns 0
T55E8 000:885.250 JLINK_WriteReg(CFBP, 0x00000000)
T55E8 000:885.255 - 0.008ms returns 0
T55E8 000:885.261 JLINK_SetBPEx(Addr = 0x20000000, Type = 0xFFFFFFF2)
T55E8 000:885.268 - 0.009ms returns 0x0000000A
T55E8 000:885.274 JLINK_Go()
T55E8 000:885.287   CPU_ReadMem(4 bytes @ 0xE0001000)
T55E8 000:889.445 - 4.190ms
T55E8 000:889.478 JLINK_IsHalted()
T55E8 000:890.619 - 1.160ms returns FALSE
T55E8 000:890.650 JLINK_HasError()
T55E8 000:892.655 JLINK_IsHalted()
T55E8 000:893.597 - 0.961ms returns FALSE
T55E8 000:893.624 JLINK_HasError()
T55E8 000:894.906 JLINK_IsHalted()
T55E8 000:895.553 - 0.665ms returns FALSE
T55E8 000:895.582 JLINK_HasError()
T55E8 000:898.974 JLINK_IsHalted()
T55E8 000:899.526 - 0.559ms returns FALSE
T55E8 000:899.539 JLINK_HasError()
T55E8 000:900.957 JLINK_IsHalted()
T55E8 000:901.497 - 0.547ms returns FALSE
T55E8 000:901.509 JLINK_HasError()
T55E8 000:902.992 JLINK_IsHalted()
T55E8 000:903.539 - 0.554ms returns FALSE
T55E8 000:903.552 JLINK_HasError()
T55E8 000:904.961 JLINK_IsHalted()
T55E8 000:905.480 - 0.526ms returns FALSE
T55E8 000:905.492 JLINK_HasError()
T55E8 000:906.988 JLINK_IsHalted()
T55E8 000:907.480 - 0.498ms returns FALSE
T55E8 000:907.492 JLINK_HasError()
T55E8 000:908.961 JLINK_IsHalted()
T55E8 000:909.478 - 0.523ms returns FALSE
T55E8 000:909.490 JLINK_HasError()
T55E8 000:910.907 JLINK_IsHalted()
T55E8 000:911.479 - 0.583ms returns FALSE
T55E8 000:911.497 JLINK_HasError()
T55E8 000:913.923 JLINK_IsHalted()
T55E8 000:914.379 - 0.459ms returns FALSE
T55E8 000:914.388 JLINK_HasError()
T55E8 000:916.244 JLINK_IsHalted()
T55E8 000:919.818   CPU_ReadMem(2 bytes @ 0x20000000)
T55E8 000:920.284 - 4.045ms returns TRUE
T55E8 000:920.294 JLINK_ReadReg(R15 (PC))
T55E8 000:920.301 - 0.009ms returns 0x20000000
T55E8 000:920.307 JLINK_ClrBPEx(BPHandle = 0x0000000A)
T55E8 000:920.312 - 0.007ms returns 0x00
T55E8 000:920.318 JLINK_ReadReg(R0)
T55E8 000:920.323 - 0.007ms returns 0x00000000
T55E8 000:920.685 JLINK_WriteMem(0x20000254, 0x1AC Bytes, ...)
T55E8 000:920.695   Data:  11 E0 42 F2 7C 00 00 F0 11 F8 05 46 0B E0 42 F2 ...
T55E8 000:920.708   CPU_WriteMem(428 bytes @ 0x20000254)
T55E8 000:923.845 - 3.166ms returns 0x1AC
T55E8 000:923.857 JLINK_WriteMem(0x20000400, 0x400 Bytes, ...)
T55E8 000:923.863   Data:  D2 68 52 1C 03 4B DA 60 03 E0 6F F0 03 02 01 4B ...
T55E8 000:923.875   CPU_WriteMem(1024 bytes @ 0x20000400)
T55E8 000:930.720 - 6.870ms returns 0x400
T55E8 000:930.733 JLINK_WriteMem(0x20000800, 0x254 Bytes, ...)
T55E8 000:930.738   Data:  01 20 01 90 00 20 03 90 4F F0 7E 50 07 90 69 46 ...
T55E8 000:930.750   CPU_WriteMem(596 bytes @ 0x20000800)
T55E8 000:934.906 - 4.180ms returns 0x254
T55E8 000:934.919 JLINK_HasError()
T55E8 000:934.925 JLINK_WriteReg(R0, 0x00003000)
T55E8 000:934.933 - 0.010ms returns 0
T55E8 000:934.939 JLINK_WriteReg(R1, 0x00000800)
T55E8 000:934.945 - 0.007ms returns 0
T55E8 000:934.950 JLINK_WriteReg(R2, 0x20000254)
T55E8 000:934.955 - 0.007ms returns 0
T55E8 000:934.961 JLINK_WriteReg(R3, 0x00000000)
T55E8 000:934.966 - 0.007ms returns 0
T55E8 000:934.971 JLINK_WriteReg(R4, 0x00000000)
T55E8 000:934.976 - 0.007ms returns 0
T55E8 000:934.982 JLINK_WriteReg(R5, 0x00000000)
T55E8 000:934.987 - 0.007ms returns 0
T55E8 000:934.992 JLINK_WriteReg(R6, 0x00000000)
